
T0F80 000:049 SEGGER J-Link V4.68a Log File (0001ms, 0050ms total)
T0F80 000:049 DLL Compiled: Apr 12 2013 13:26:50 (0001ms, 0050ms total)
T0F80 000:049 Logging started @ 2015-10-12 10:44 (0001ms, 0050ms total)
T0F80 000:050 JLINK_SetWarnOutHandler(...) (0000ms, 0050ms total)
T0F80 000:050 JLINK_OpenEx(...)
Firmware: J-Link ARM V8 compiled Nov 14 2012 22:34:52
Hardware: V8.00
S/N: 17935099
Feature(s): RDI,FlashDL,FlashBP,JFlash  returns O.K. (0023ms, 0073ms total)
T0F80 000:073 JLINK_SetErrorOutHandler(...) (0000ms, 0073ms total)
T0F80 000:073 JLINK_ExecCommand("ProjectFile = "E:\PROJECT\ÕñÏÒ´«¸ÐÆ÷\JLinkSettings.ini"", ...)  returns 0x00 (0000ms, 0073ms total)
T0F80 000:075 JLINK_ExecCommand("Device = STM32F407VE", ...)
                JLINK_AddMirrorAreaEx(Addr = 0x00000000, Size = 0x00000000) (0000ms, 0000ms total)
              Device "STM32F407VE" selected (512 KB flash, 128 KB RAM).  returns 0x00 (0002ms, 0075ms total)
T0F80 000:077 JLINK_ExecCommand("DisableConnectionTimeout", ...)  returns 0x00 (0001ms, 0076ms total)
T0F80 000:078 JLINK_GetHardwareVersion()  returns 0x13880 (0000ms, 0076ms total)
T0F80 000:078 JLINK_GetDLLVersion()  returns 46801 (0000ms, 0076ms total)
T0F80 000:078 JLINK_GetFirmwareString(...) (0000ms, 0076ms total)
T0F80 000:083 JLINK_GetDLLVersion()  returns 46801 (0000ms, 0076ms total)
T0F80 000:083 JLINK_GetCompileDateTime() (0000ms, 0076ms total)
T0F80 000:085 JLINK_GetFirmwareString(...) (0000ms, 0076ms total)
T0F80 000:086 JLINK_GetHardwareVersion()  returns 0x13880 (0000ms, 0076ms total)
T0F80 000:091 JLINK_TIF_Select(JLINKARM_TIF_SWD)  returns 0x00 (0005ms, 0081ms total)
T0F80 000:096 JLINK_SetSpeed(2000) (0001ms, 0082ms total)
T0F80 000:097 JLINK_GetId() >0x108 TIF>Found SWD-DP with ID 0x2BA01477 >0x0D TIF> >0x28 TIF> >0x0D TIF> >0x28 TIF> >0x0D TIF> >0x21 TIF> >0x0D TIF> >0x28 TIF> >0x0D TIF> >0x28 TIF> >0x0D TIF> >0x28 TIF> >0x0D TIF> >0x21 TIF> >0x0D TIF> >0x21 TIF> >0x0D TIF> >0x28 TIF> >0x0D TIF> >0x21 TIF> >0x0D TIF> >0x21 TIF> >0x0D TIF> >0x28 TIF> >0x0D TIF> >0x21 TIF> >0x0D TIF> >0x21 TIF> >0x108 TIF>Found SWD-DP with ID 0x2BA01477 >0x0D TIF> >0x21 TIF> >0x0D TIF> >0x28 TIF> >0x0D TIF> >0x28 TIF> >0x0D TIF> >0x21 TIF>
 >0x0D TIF> >0x21 TIF> >0x0D TIF> >0x28 TIF> >0x0D TIF> >0x21 TIF> >0x0D TIF> >0x21 TIF> >0x0D TIF> >0x21 TIF> >0x0D TIF> >0x21 TIF> >0x0D TIF> >0x21 TIF> >0x0D TIF> >0x28 TIF> >0x0D TIF> >0x28 TIF> >0x0D TIF> >0x21 TIF> >0x0D TIF> >0x21 TIF> >0x0D TIF> >0x28 TIF> >0x0D TIF> >0x21 TIF> >0x0D TIF> >0x21 TIF> >0x0D TIF> >0x28 TIF> >0x0D TIF> >0x28 TIF> >0x0D TIF> >0x28 TIF> >0x0D TIF> >0x21 TIF> >0x0D TIF> >0x21 TIF> >0x0D TIF> >0x28 TIF> >0x0D TIF> >0x28 TIF> >0x0D TIF> >0x28 TIF> >0x0D TIF> >0x21 TIF>
 >0x0D TIF> >0x21 TIF> >0x0D TIF> >0x21 TIF>TPIU fitted.ETM fitted. >0x0D TIF> >0x28 TIF> >0x0D TIF> >0x21 TIF> >0x0D TIF> >0x21 TIF> >0x0D TIF> >0x28 TIF> >0x0D TIF> >0x21 TIF> >0x0D TIF> >0x21 TIF>FPUnit: 6 code (BP) slots and 2 literal slots >0x0D TIF> >0x28 TIF> >0x0D TIF> >0x21 TIF> >0x0D TIF> >0x21 TIF> >0x0D TIF> >0x28 TIF> >0x0D TIF> >0x21 TIF> >0x0D TIF> >0x21 TIF> >0x0D TIF> >0x28 TIF> >0x0D TIF> >0x21 TIF> >0x0D TIF> >0x21 TIF> >0x0D TIF> >0x28 TIF> >0x0D TIF> >0x21 TIF> >0x0D TIF> >0x21 TIF>
Found Cortex-M4 r0p1, Little endian. >0x0D TIF> >0x21 TIF>  returns 0x2BA01477 (0139ms, 0221ms total)
T0F80 000:236 JLINK_GetDeviceFamily()  returns 14 (0000ms, 0221ms total)
T0F80 000:237 JLINK_ReadMem (0xE00FFFF0, 0x0010 Bytes, ...) -- CPU is running -- CPU_ReadMem(16 bytes @ 0xE00FFFF0) -- Data:  0D 00 00 00 10 00 00 00 05 00 00 00 B1 00 00 00  returns 0x00 (0001ms, 0222ms total)
T0F80 000:238 JLINK_ReadMem (0xE00FFFD0, 0x0020 Bytes, ...) -- CPU is running -- CPU_ReadMem(32 bytes @ 0xE00FFFD0) -- Data:  00 00 00 00 00 00 00 00 00 00 00 00 00 00 00 00 ...  returns 0x00 (0001ms, 0223ms total)
T0F80 000:239 JLINK_ReadMem (0xE00FF000, 0x0018 Bytes, ...) -- CPU is running -- CPU_ReadMem(24 bytes @ 0xE00FF000) -- Data:  03 F0 F0 FF 03 20 F0 FF 03 30 F0 FF 03 10 F0 FF ...  returns 0x00 (0001ms, 0224ms total)
T0F80 000:240 JLINK_ReadMemU32(0xE000ED00, 0x0001 Items, ...) -- CPU is running -- CPU_ReadMem(4 bytes @ 0xE000ED00) -- Data:  41 C2 0F 41  returns 0x01 (0001ms, 0225ms total)
T0F80 000:241 JLINK_ReadMemU32(0xE000EF40, 0x0001 Items, ...) -- CPU is running -- CPU_ReadMem(4 bytes @ 0xE000EF40) -- Data:  21 00 11 10  returns 0x01 (0001ms, 0226ms total)
T0F80 000:242 JLINK_ReadMemU32(0xE000EF44, 0x0001 Items, ...) -- CPU is running -- CPU_ReadMem(4 bytes @ 0xE000EF44) -- Data:  11 00 00 11  returns 0x01 (0001ms, 0227ms total)
T0F80 000:243 JLINK_SetResetType(JLINKARM_RESET_TYPE_NORMAL)  returns JLINKARM_RESET_TYPE_NORMAL (0000ms, 0227ms total)
T0F80 000:243 JLINK_Reset() -- CPU is running -- CPU_WriteMem(4 bytes @ 0xE000EDF0) -- CPU is running -- CPU_WriteMem(4 bytes @ 0xE000EDFC) >0x35 TIF> -- CPU is running -- CPU_WriteMem(4 bytes @ 0xE000ED0C) -- CPU is running -- CPU_ReadMem(4 bytes @ 0xE000EDF0) -- CPU is running -- CPU_ReadMem(4 bytes @ 0xE000EDF0) -- CPU is running -- CPU_WriteMem(4 bytes @ 0xE000EDF0) -- CPU is running -- CPU_WriteMem(4 bytes @ 0xE000EDFC) -- CPU is running -- CPU_ReadMem(4 bytes @ 0xE000EDF0)
 -- CPU_WriteMem(4 bytes @ 0xE0002000) (0021ms, 0248ms total)
T0F80 000:264 JLINK_Halt()  returns 0x00 (0000ms, 0248ms total)
T0F80 000:264 JLINK_IsHalted()  returns TRUE (0000ms, 0248ms total)
T0F80 000:264 JLINK_ReadMemU32(0xE000EDF0, 0x0001 Items, ...) -- CPU_ReadMem(4 bytes @ 0xE000EDF0) -- Data:  03 00 03 00  returns 0x01 (0001ms, 0249ms total)
T0F80 000:265 JLINK_WriteU32(0xE000EDF0, 0xA05F0003) -- CPU_WriteMem(4 bytes @ 0xE000EDF0)  returns 0x00 (0001ms, 0250ms total)
T0F80 000:266 JLINK_WriteU32(0xE000EDFC, 0x01000000) -- CPU_WriteMem(4 bytes @ 0xE000EDFC)  returns 0x00 (0001ms, 0251ms total)
T0F80 000:271 JLINK_GetHWStatus(...)  returns 0x00 (0001ms, 0252ms total)
T0F80 000:275 JLINK_GetNumBPUnits(Type = 0xFFFFFF00)  returns 0x06 (0000ms, 0252ms total)
T0F80 000:275 JLINK_GetNumBPUnits(Type = 0xF0)  returns 0x2000 (0000ms, 0252ms total)
T0F80 000:275 JLINK_GetNumWPUnits()  returns 0x04 (0000ms, 0252ms total)
T0F80 000:278 JLINK_GetSpeed()  returns 0x7D0 (0000ms, 0252ms total)
T0F80 000:281 JLINK_ReadMemU32(0xE000E004, 0x0001 Items, ...) -- CPU_ReadMem(4 bytes @ 0xE000E004) -- Data:  02 00 00 00  returns 0x01 (0001ms, 0253ms total)
T0F80 000:282 JLINK_ReadMemU32(0xE000E004, 0x0001 Items, ...) -- CPU_ReadMem(4 bytes @ 0xE000E004) -- Data:  02 00 00 00  returns 0x01 (0001ms, 0254ms total)
T0F80 000:283 JLINK_WriteMem(0xE0001000, 0x001C Bytes, ...) -- Data:  01 00 00 00 00 00 00 00 00 00 00 00 00 00 00 00 ... -- CPU_WriteMem(28 bytes @ 0xE0001000)  returns 0x1C (0001ms, 0255ms total)
T0F80 000:284 JLINK_ReadMem (0xE0001000, 0x001C Bytes, ...) -- CPU_ReadMem(28 bytes @ 0xE0001000) -- Data:  01 00 00 40 00 00 00 00 00 00 00 00 00 00 00 00 ...  returns 0x00 (0001ms, 0256ms total)
T0F80 000:285 JLINK_Halt()  returns 0x00 (0000ms, 0256ms total)
T0F80 000:285 JLINK_IsHalted()  returns TRUE (0000ms, 0256ms total)
T0F80 000:286 JLINK_WriteMem(0x20000000, 0x0180 Bytes, ...) -- Data:  00 BE 0A E0 0D 78 2D 06 68 40 08 24 40 00 00 D3 ... -- CPU_WriteMem(384 bytes @ 0x20000000)  returns 0x180 (0004ms, 0260ms total)
T0F80 000:290 JLINK_WriteReg(R0, 0x08000000)  returns 0x00 (0000ms, 0260ms total)
T0F80 000:290 JLINK_WriteReg(R1, 0x017D7840)  returns 0x00 (0000ms, 0260ms total)
T0F80 000:290 JLINK_WriteReg(R2, 0x00000001)  returns 0x00 (0000ms, 0260ms total)
T0F80 000:290 JLINK_WriteReg(R3, 0x00000000)  returns 0x00 (0000ms, 0260ms total)
T0F80 000:290 JLINK_WriteReg(R4, 0x00000000)  returns 0x00 (0000ms, 0260ms total)
T0F80 000:290 JLINK_WriteReg(R5, 0x00000000)  returns 0x00 (0000ms, 0260ms total)
T0F80 000:290 JLINK_WriteReg(R6, 0x00000000)  returns 0x00 (0000ms, 0260ms total)
T0F80 000:290 JLINK_WriteReg(R7, 0x00000000)  returns 0x00 (0000ms, 0260ms total)
T0F80 000:290 JLINK_WriteReg(R8, 0x00000000)  returns 0x00 (0000ms, 0260ms total)
T0F80 000:290 JLINK_WriteReg(R9, 0x2000017C)  returns 0x00 (0000ms, 0260ms total)
T0F80 000:290 JLINK_WriteReg(R10, 0x00000000)  returns 0x00 (0000ms, 0260ms total)
T0F80 000:290 JLINK_WriteReg(R11, 0x00000000)  returns 0x00 (0000ms, 0260ms total)
T0F80 000:290 JLINK_WriteReg(R12, 0x00000000)  returns 0x00 (0000ms, 0260ms total)
T0F80 000:291 JLINK_WriteReg(R13, 0x20000800)  returns 0x00 (0000ms, 0260ms total)
T0F80 000:291 JLINK_WriteReg(R14, 0x20000001)  returns 0x00 (0000ms, 0260ms total)
T0F80 000:291 JLINK_WriteReg(R15, 0x20000054)  returns 0x00 (0000ms, 0260ms total)
T0F80 000:291 JLINK_WriteReg(XPSR, 0x01000000)  returns 0x00 (0000ms, 0260ms total)
T0F80 000:291 JLINK_WriteReg(MSP, 0x20000800)  returns 0x00 (0000ms, 0260ms total)
T0F80 000:291 JLINK_WriteReg(PSP, 0x20000800)  returns 0x00 (0000ms, 0260ms total)
T0F80 000:291 JLINK_WriteReg(CFBP, 0x00000000)  returns 0x00 (0000ms, 0260ms total)
T0F80 000:291 JLINK_SetBPEx(Addr = 0x20000000, Type = 0xFFFFFFF2) -- CPU_ReadMem(2 bytes @ 0x20000000)  returns 0x00000001 (0000ms, 0260ms total)
T0F80 000:291 JLINK_Go() -- CPU_WriteMem(2 bytes @ 0x20000000) -- CPU_WriteMem(4 bytes @ 0xE0002008) -- CPU_WriteMem(4 bytes @ 0xE000200C) -- CPU_WriteMem(4 bytes @ 0xE0002010) -- CPU_WriteMem(4 bytes @ 0xE0002014) -- CPU_WriteMem(4 bytes @ 0xE0002018) -- CPU_WriteMem(4 bytes @ 0xE000201C) (0010ms, 0270ms total)
T0F80 000:301 JLINK_IsHalted() -- CPU_ReadMem(2 bytes @ 0x20000000)  returns TRUE (0006ms, 0276ms total)
T0F80 000:307 JLINK_ReadReg(R15)  returns 0x20000000 (0000ms, 0270ms total)
T0F80 000:307 JLINK_ClrBPEx(BPHandle = 0x00000001)  returns 0x00 (0000ms, 0270ms total)
T0F80 000:307 JLINK_ReadReg(R0)  returns 0x00000000 (0000ms, 0270ms total)
T0F80 000:307 JLINK_WriteReg(R0, 0x08000000)  returns 0x00 (0000ms, 0270ms total)
T0F80 000:307 JLINK_WriteReg(R1, 0x00004000)  returns 0x00 (0000ms, 0270ms total)
T0F80 000:307 JLINK_WriteReg(R2, 0x000000FF)  returns 0x00 (0000ms, 0270ms total)
T0F80 000:307 JLINK_WriteReg(R3, 0x00000000)  returns 0x00 (0000ms, 0270ms total)
T0F80 000:307 JLINK_WriteReg(R4, 0x00000000)  returns 0x00 (0000ms, 0270ms total)
T0F80 000:307 JLINK_WriteReg(R5, 0x00000000)  returns 0x00 (0000ms, 0270ms total)
T0F80 000:307 JLINK_WriteReg(R6, 0x00000000)  returns 0x00 (0000ms, 0270ms total)
T0F80 000:307 JLINK_WriteReg(R7, 0x00000000)  returns 0x00 (0000ms, 0270ms total)
T0F80 000:307 JLINK_WriteReg(R8, 0x00000000)  returns 0x00 (0000ms, 0270ms total)
T0F80 000:307 JLINK_WriteReg(R9, 0x2000017C)  returns 0x00 (0000ms, 0270ms total)
T0F80 000:307 JLINK_WriteReg(R10, 0x00000000)  returns 0x00 (0000ms, 0270ms total)
T0F80 000:307 JLINK_WriteReg(R11, 0x00000000)  returns 0x00 (0000ms, 0270ms total)
T0F80 000:307 JLINK_WriteReg(R12, 0x00000000)  returns 0x00 (0000ms, 0270ms total)
T0F80 000:307 JLINK_WriteReg(R13, 0x20000800)  returns 0x00 (0000ms, 0270ms total)
T0F80 000:307 JLINK_WriteReg(R14, 0x20000001)  returns 0x00 (0000ms, 0270ms total)
T0F80 000:307 JLINK_WriteReg(R15, 0x20000020)  returns 0x00 (0000ms, 0270ms total)
T0F80 000:307 JLINK_WriteReg(XPSR, 0x01000000)  returns 0x00 (0000ms, 0270ms total)
T0F80 000:307 JLINK_WriteReg(MSP, 0x20000800)  returns 0x00 (0000ms, 0270ms total)
T0F80 000:307 JLINK_WriteReg(PSP, 0x20000800)  returns 0x00 (0000ms, 0270ms total)
T0F80 000:307 JLINK_WriteReg(CFBP, 0x00000000)  returns 0x00 (0000ms, 0270ms total)
T0F80 000:307 JLINK_SetBPEx(Addr = 0x20000000, Type = 0xFFFFFFF2)  returns 0x00000002 (0000ms, 0270ms total)
T0F80 000:307 JLINK_Go() (0003ms, 0273ms total)
T0F80 000:310 JLINK_IsHalted() -- CPU_ReadMem(2 bytes @ 0x20000000)  returns TRUE (0005ms, 0278ms total)
T0F80 000:315 JLINK_ReadReg(R15)  returns 0x20000000 (0000ms, 0273ms total)
T0F80 000:315 JLINK_ClrBPEx(BPHandle = 0x00000002)  returns 0x00 (0000ms, 0273ms total)
T0F80 000:315 JLINK_ReadReg(R0)  returns 0x00000001 (0000ms, 0273ms total)
T0F80 000:315 JLINK_WriteReg(R0, 0x08000000)  returns 0x00 (0000ms, 0273ms total)
T0F80 000:315 JLINK_WriteReg(R1, 0x00004000)  returns 0x00 (0000ms, 0273ms total)
T0F80 000:315 JLINK_WriteReg(R2, 0x000000FF)  returns 0x00 (0000ms, 0273ms total)
T0F80 000:315 JLINK_WriteReg(R3, 0x00000000)  returns 0x00 (0000ms, 0273ms total)
T0F80 000:315 JLINK_WriteReg(R4, 0x00000000)  returns 0x00 (0000ms, 0273ms total)
T0F80 000:315 JLINK_WriteReg(R5, 0x00000000)  returns 0x00 (0000ms, 0273ms total)
T0F80 000:315 JLINK_WriteReg(R6, 0x00000000)  returns 0x00 (0000ms, 0273ms total)
T0F80 000:315 JLINK_WriteReg(R7, 0x00000000)  returns 0x00 (0000ms, 0273ms total)
T0F80 000:315 JLINK_WriteReg(R8, 0x00000000)  returns 0x00 (0000ms, 0273ms total)
T0F80 000:315 JLINK_WriteReg(R9, 0x2000017C)  returns 0x00 (0000ms, 0273ms total)
T0F80 000:315 JLINK_WriteReg(R10, 0x00000000)  returns 0x00 (0000ms, 0273ms total)
T0F80 000:315 JLINK_WriteReg(R11, 0x00000000)  returns 0x00 (0000ms, 0273ms total)
T0F80 000:315 JLINK_WriteReg(R12, 0x00000000)  returns 0x00 (0000ms, 0273ms total)
T0F80 000:315 JLINK_WriteReg(R13, 0x20000800)  returns 0x00 (0000ms, 0273ms total)
T0F80 000:315 JLINK_WriteReg(R14, 0x20000001)  returns 0x00 (0000ms, 0273ms total)
T0F80 000:315 JLINK_WriteReg(R15, 0x200000BC)  returns 0x00 (0000ms, 0273ms total)
T0F80 000:315 JLINK_WriteReg(XPSR, 0x01000000)  returns 0x00 (0000ms, 0273ms total)
T0F80 000:315 JLINK_WriteReg(MSP, 0x20000800)  returns 0x00 (0000ms, 0273ms total)
T0F80 000:315 JLINK_WriteReg(PSP, 0x20000800)  returns 0x00 (0000ms, 0273ms total)
T0F80 000:315 JLINK_WriteReg(CFBP, 0x00000000)  returns 0x00 (0000ms, 0273ms total)
T0F80 000:315 JLINK_SetBPEx(Addr = 0x20000000, Type = 0xFFFFFFF2)  returns 0x00000003 (0000ms, 0273ms total)
T0F80 000:315 JLINK_Go() (0003ms, 0276ms total)
T0F80 000:318 JLINK_IsHalted()  returns FALSE (0001ms, 0277ms total)
T0F80 000:334 JLINK_IsHalted()  returns FALSE (0001ms, 0277ms total)
T0F80 000:336 JLINK_IsHalted()  returns FALSE (0001ms, 0277ms total)
T0F80 000:338 JLINK_IsHalted()  returns FALSE (0001ms, 0277ms total)
T0F80 000:340 JLINK_IsHalted()  returns FALSE (0001ms, 0277ms total)
T0F80 000:342 JLINK_IsHalted()  returns FALSE (0001ms, 0277ms total)
T0F80 000:345 JLINK_IsHalted()  returns FALSE (0001ms, 0277ms total)
T0F80 000:347 JLINK_IsHalted()  returns FALSE (0001ms, 0277ms total)
T0F80 000:349 JLINK_IsHalted()  returns FALSE (0001ms, 0277ms total)
T0F80 000:351 JLINK_IsHalted()  returns FALSE (0001ms, 0277ms total)
T0F80 000:353 JLINK_IsHalted()  returns FALSE (0001ms, 0277ms total)
T0F80 000:355 JLINK_IsHalted()  returns FALSE (0001ms, 0277ms total)
T0F80 000:357 JLINK_IsHalted()  returns FALSE (0001ms, 0277ms total)
T0F80 000:359 JLINK_IsHalted()  returns FALSE (0001ms, 0277ms total)
T0F80 000:361 JLINK_IsHalted()  returns FALSE (0001ms, 0277ms total)
T0F80 000:363 JLINK_IsHalted()  returns FALSE (0001ms, 0277ms total)
T0F80 000:365 JLINK_IsHalted()  returns FALSE (0001ms, 0277ms total)
T0F80 000:367 JLINK_IsHalted()  returns FALSE (0001ms, 0277ms total)
T0F80 000:369 JLINK_IsHalted()  returns FALSE (0001ms, 0277ms total)
T0F80 000:371 JLINK_IsHalted()  returns FALSE (0001ms, 0277ms total)
T0F80 000:373 JLINK_IsHalted()  returns FALSE (0001ms, 0277ms total)
T0F80 000:376 JLINK_IsHalted()  returns FALSE (0001ms, 0277ms total)
T0F80 000:378 JLINK_IsHalted()  returns FALSE (0001ms, 0277ms total)
T0F80 000:380 JLINK_IsHalted()  returns FALSE (0001ms, 0277ms total)
T0F80 000:382 JLINK_IsHalted()  returns FALSE (0001ms, 0277ms total)
T0F80 000:384 JLINK_IsHalted()  returns FALSE (0001ms, 0277ms total)
T0F80 000:386 JLINK_IsHalted()  returns FALSE (0001ms, 0277ms total)
T0F80 000:388 JLINK_IsHalted()  returns FALSE (0001ms, 0277ms total)
T0F80 000:390 JLINK_IsHalted()  returns FALSE (0001ms, 0277ms total)
T0F80 000:392 JLINK_IsHalted()  returns FALSE (0001ms, 0277ms total)
T0F80 000:394 JLINK_IsHalted()  returns FALSE (0001ms, 0277ms total)
T0F80 000:396 JLINK_IsHalted()  returns FALSE (0001ms, 0277ms total)
T0F80 000:398 JLINK_IsHalted()  returns FALSE (0001ms, 0277ms total)
T0F80 000:400 JLINK_IsHalted()  returns FALSE (0001ms, 0277ms total)
T0F80 000:402 JLINK_IsHalted()  returns FALSE (0001ms, 0277ms total)
T0F80 000:404 JLINK_IsHalted()  returns FALSE (0001ms, 0277ms total)
T0F80 000:406 JLINK_IsHalted()  returns FALSE (0001ms, 0277ms total)
T0F80 000:409 JLINK_IsHalted()  returns FALSE (0001ms, 0277ms total)
T0F80 000:411 JLINK_IsHalted()  returns FALSE (0001ms, 0277ms total)
T0F80 000:413 JLINK_IsHalted()  returns FALSE (0001ms, 0277ms total)
T0F80 000:415 JLINK_IsHalted()  returns FALSE (0001ms, 0277ms total)
T0F80 000:417 JLINK_IsHalted()  returns FALSE (0001ms, 0277ms total)
T0F80 000:419 JLINK_IsHalted()  returns FALSE (0001ms, 0277ms total)
T0F80 000:421 JLINK_IsHalted()  returns FALSE (0001ms, 0277ms total)
T0F80 000:424 JLINK_IsHalted()  returns FALSE (0001ms, 0277ms total)
T0F80 000:426 JLINK_IsHalted()  returns FALSE (0001ms, 0277ms total)
T0F80 000:428 JLINK_IsHalted()  returns FALSE (0001ms, 0277ms total)
T0F80 000:430 JLINK_IsHalted()  returns FALSE (0001ms, 0277ms total)
T0F80 000:432 JLINK_IsHalted()  returns FALSE (0001ms, 0277ms total)
T0F80 000:434 JLINK_IsHalted()  returns FALSE (0001ms, 0277ms total)
T0F80 000:436 JLINK_IsHalted()  returns FALSE (0001ms, 0277ms total)
T0F80 000:438 JLINK_IsHalted()  returns FALSE (0001ms, 0277ms total)
T0F80 000:440 JLINK_IsHalted()  returns FALSE (0001ms, 0277ms total)
T0F80 000:442 JLINK_IsHalted()  returns FALSE (0001ms, 0277ms total)
T0F80 000:444 JLINK_IsHalted()  returns FALSE (0001ms, 0277ms total)
T0F80 000:446 JLINK_IsHalted()  returns FALSE (0001ms, 0277ms total)
T0F80 000:448 JLINK_IsHalted()  returns FALSE (0001ms, 0277ms total)
T0F80 000:450 JLINK_IsHalted()  returns FALSE (0001ms, 0277ms total)
T0F80 000:455 JLINK_IsHalted()  returns FALSE (0001ms, 0277ms total)
T0F80 000:457 JLINK_IsHalted()  returns FALSE (0001ms, 0277ms total)
T0F80 000:459 JLINK_IsHalted()  returns FALSE (0001ms, 0277ms total)
T0F80 000:461 JLINK_IsHalted()  returns FALSE (0001ms, 0277ms total)
T0F80 000:463 JLINK_IsHalted()  returns FALSE (0001ms, 0277ms total)
T0F80 000:465 JLINK_IsHalted()  returns FALSE (0001ms, 0277ms total)
T0F80 000:467 JLINK_IsHalted()  returns FALSE (0001ms, 0277ms total)
T0F80 000:469 JLINK_IsHalted()  returns FALSE (0001ms, 0277ms total)
T0F80 000:471 JLINK_IsHalted()  returns FALSE (0001ms, 0277ms total)
T0F80 000:473 JLINK_IsHalted()  returns FALSE (0001ms, 0277ms total)
T0F80 000:475 JLINK_IsHalted()  returns FALSE (0001ms, 0277ms total)
T0F80 000:477 JLINK_IsHalted()  returns FALSE (0001ms, 0277ms total)
T0F80 000:479 JLINK_IsHalted()  returns FALSE (0001ms, 0277ms total)
T0F80 000:481 JLINK_IsHalted()  returns FALSE (0001ms, 0277ms total)
T0F80 000:485 JLINK_IsHalted()  returns FALSE (0001ms, 0277ms total)
T0F80 000:487 JLINK_IsHalted()  returns FALSE (0001ms, 0277ms total)
T0F80 000:489 JLINK_IsHalted()  returns FALSE (0001ms, 0277ms total)
T0F80 000:491 JLINK_IsHalted()  returns FALSE (0001ms, 0277ms total)
T0F80 000:493 JLINK_IsHalted()  returns FALSE (0001ms, 0277ms total)
T0F80 000:495 JLINK_IsHalted()  returns FALSE (0001ms, 0277ms total)
T0F80 000:497 JLINK_IsHalted()  returns FALSE (0001ms, 0277ms total)
T0F80 000:499 JLINK_IsHalted()  returns FALSE (0001ms, 0277ms total)
T0F80 000:501 JLINK_IsHalted()  returns FALSE (0001ms, 0277ms total)
T0F80 000:503 JLINK_IsHalted()  returns FALSE (0001ms, 0277ms total)
T0F80 000:505 JLINK_IsHalted()  returns FALSE (0001ms, 0277ms total)
T0F80 000:507 JLINK_IsHalted()  returns FALSE (0001ms, 0277ms total)
T0F80 000:509 JLINK_IsHalted()  returns FALSE (0001ms, 0277ms total)
T0F80 000:511 JLINK_IsHalted()  returns FALSE (0001ms, 0277ms total)
T0F80 000:513 JLINK_IsHalted()  returns FALSE (0001ms, 0277ms total)
T0F80 000:516 JLINK_IsHalted()  returns FALSE (0001ms, 0277ms total)
T0F80 000:518 JLINK_IsHalted()  returns FALSE (0001ms, 0277ms total)
T0F80 000:520 JLINK_IsHalted()  returns FALSE (0001ms, 0277ms total)
T0F80 000:522 JLINK_IsHalted()  returns FALSE (0001ms, 0277ms total)
T0F80 000:524 JLINK_IsHalted()  returns FALSE (0001ms, 0277ms total)
T0F80 000:526 JLINK_IsHalted()  returns FALSE (0001ms, 0277ms total)
T0F80 000:528 JLINK_IsHalted()  returns FALSE (0001ms, 0277ms total)
T0F80 000:531 JLINK_IsHalted()  returns FALSE (0001ms, 0277ms total)
T0F80 000:533 JLINK_IsHalted()  returns FALSE (0001ms, 0277ms total)
T0F80 000:535 JLINK_IsHalted()  returns FALSE (0001ms, 0277ms total)
T0F80 000:537 JLINK_IsHalted()  returns FALSE (0001ms, 0277ms total)
T0F80 000:539 JLINK_IsHalted()  returns FALSE (0001ms, 0277ms total)
T0F80 000:541 JLINK_IsHalted()  returns FALSE (0001ms, 0277ms total)
T0F80 000:543 JLINK_IsHalted()  returns FALSE (0001ms, 0277ms total)
T0F80 000:545 JLINK_IsHalted()  returns FALSE (0001ms, 0277ms total)
T0F80 000:547 JLINK_IsHalted()  returns FALSE (0001ms, 0277ms total)
T0F80 000:549 JLINK_IsHalted()  returns FALSE (0001ms, 0277ms total)
T0F80 000:551 JLINK_IsHalted()  returns FALSE (0001ms, 0277ms total)
T0F80 000:553 JLINK_IsHalted()  returns FALSE (0001ms, 0277ms total)
T0F80 000:555 JLINK_IsHalted()  returns FALSE (0001ms, 0277ms total)
T0F80 000:557 JLINK_IsHalted()  returns FALSE (0001ms, 0277ms total)
T0F80 000:559 JLINK_IsHalted()  returns FALSE (0001ms, 0277ms total)
T0F80 000:561 JLINK_IsHalted()  returns FALSE (0001ms, 0277ms total)
T0F80 000:564 JLINK_IsHalted()  returns FALSE (0001ms, 0277ms total)
T0F80 000:566 JLINK_IsHalted()  returns FALSE (0001ms, 0277ms total)
T0F80 000:568 JLINK_IsHalted()  returns FALSE (0001ms, 0277ms total)
T0F80 000:570 JLINK_IsHalted()  returns FALSE (0001ms, 0277ms total)
T0F80 000:572 JLINK_IsHalted()  returns FALSE (0001ms, 0277ms total)
T0F80 000:574 JLINK_IsHalted()  returns FALSE (0001ms, 0277ms total)
T0F80 000:576 JLINK_IsHalted()  returns FALSE (0001ms, 0277ms total)
T0F80 000:578 JLINK_IsHalted()  returns FALSE (0001ms, 0277ms total)
T0F80 000:580 JLINK_IsHalted()  returns FALSE (0001ms, 0277ms total)
T0F80 000:582 JLINK_IsHalted()  returns FALSE (0001ms, 0277ms total)
T0F80 000:584 JLINK_IsHalted()  returns FALSE (0001ms, 0277ms total)
T0F80 000:586 JLINK_IsHalted()  returns FALSE (0001ms, 0277ms total)
T0F80 000:588 JLINK_IsHalted()  returns FALSE (0001ms, 0277ms total)
T0F80 000:590 JLINK_IsHalted()  returns FALSE (0001ms, 0277ms total)
T0F80 000:594 JLINK_IsHalted()  returns FALSE (0001ms, 0277ms total)
T0F80 000:596 JLINK_IsHalted()  returns FALSE (0001ms, 0277ms total)
T0F80 000:598 JLINK_IsHalted()  returns FALSE (0001ms, 0277ms total)
T0F80 000:600 JLINK_IsHalted()  returns FALSE (0001ms, 0277ms total)
T0F80 000:602 JLINK_IsHalted()  returns FALSE (0001ms, 0277ms total)
T0F80 000:604 JLINK_IsHalted()  returns FALSE (0001ms, 0277ms total)
T0F80 000:606 JLINK_IsHalted()  returns FALSE (0001ms, 0277ms total)
T0F80 000:608 JLINK_IsHalted()  returns FALSE (0001ms, 0277ms total)
T0F80 000:610 JLINK_IsHalted()  returns FALSE (0001ms, 0277ms total)
T0F80 000:612 JLINK_IsHalted()  returns FALSE (0001ms, 0277ms total)
T0F80 000:614 JLINK_IsHalted()  returns FALSE (0001ms, 0277ms total)
T0F80 000:616 JLINK_IsHalted()  returns FALSE (0001ms, 0277ms total)
T0F80 000:618 JLINK_IsHalted()  returns FALSE (0001ms, 0277ms total)
T0F80 000:620 JLINK_IsHalted()  returns FALSE (0001ms, 0277ms total)
T0F80 000:622 JLINK_IsHalted()  returns FALSE (0001ms, 0277ms total)
T0F80 000:624 JLINK_IsHalted()  returns FALSE (0001ms, 0277ms total)
T0F80 000:626 JLINK_IsHalted()  returns FALSE (0001ms, 0277ms total)
T0F80 000:628 JLINK_IsHalted()  returns FALSE (0001ms, 0277ms total)
T0F80 000:630 JLINK_IsHalted()  returns FALSE (0001ms, 0277ms total)
T0F80 000:632 JLINK_IsHalted()  returns FALSE (0001ms, 0277ms total)
T0F80 000:634 JLINK_IsHalted()  returns FALSE (0001ms, 0277ms total)
T0F80 000:636 JLINK_IsHalted()  returns FALSE (0001ms, 0277ms total)
T0F80 000:638 JLINK_IsHalted()  returns FALSE (0001ms, 0277ms total)
T0F80 000:640 JLINK_IsHalted()  returns FALSE (0001ms, 0277ms total)
T0F80 000:642 JLINK_IsHalted()  returns FALSE (0001ms, 0277ms total)
T0F80 000:644 JLINK_IsHalted()  returns FALSE (0001ms, 0277ms total)
T0F80 000:646 JLINK_IsHalted()  returns FALSE (0001ms, 0277ms total)
T0F80 000:648 JLINK_IsHalted()  returns FALSE (0001ms, 0277ms total)
T0F80 000:650 JLINK_IsHalted()  returns FALSE (0001ms, 0277ms total)
T0F80 000:652 JLINK_IsHalted()  returns FALSE (0001ms, 0277ms total)
T0F80 000:654 JLINK_IsHalted()  returns FALSE (0001ms, 0277ms total)
T0F80 000:656 JLINK_IsHalted()  returns FALSE (0001ms, 0277ms total)
T0F80 000:658 JLINK_IsHalted()  returns FALSE (0001ms, 0277ms total)
T0F80 000:660 JLINK_IsHalted()  returns FALSE (0001ms, 0277ms total)
T0F80 000:662 JLINK_IsHalted()  returns FALSE (0001ms, 0277ms total)
T0F80 000:664 JLINK_IsHalted()  returns FALSE (0001ms, 0277ms total)
T0F80 000:666 JLINK_IsHalted()  returns FALSE (0001ms, 0277ms total)
T0F80 000:668 JLINK_IsHalted()  returns FALSE (0001ms, 0277ms total)
T0F80 000:671 JLINK_IsHalted()  returns FALSE (0001ms, 0277ms total)
T0F80 000:673 JLINK_IsHalted()  returns FALSE (0001ms, 0277ms total)
T0F80 000:675 JLINK_IsHalted()  returns FALSE (0001ms, 0277ms total)
T0F80 000:677 JLINK_IsHalted() -- CPU_ReadMem(2 bytes @ 0x20000000)  returns TRUE (0005ms, 0281ms total)
T0F80 000:682 JLINK_ReadReg(R15)  returns 0x20000000 (0000ms, 0276ms total)
T0F80 000:682 JLINK_ClrBPEx(BPHandle = 0x00000003)  returns 0x00 (0000ms, 0276ms total)
T0F80 000:682 JLINK_ReadReg(R0)  returns 0x00000000 (0000ms, 0276ms total)
T0F80 000:682 JLINK_WriteReg(R0, 0x00000001)  returns 0x00 (0000ms, 0276ms total)
T0F80 000:682 JLINK_WriteReg(R1, 0x00004000)  returns 0x00 (0000ms, 0276ms total)
T0F80 000:682 JLINK_WriteReg(R2, 0x000000FF)  returns 0x00 (0000ms, 0276ms total)
T0F80 000:682 JLINK_WriteReg(R3, 0x00000000)  returns 0x00 (0000ms, 0276ms total)
T0F80 000:682 JLINK_WriteReg(R4, 0x00000000)  returns 0x00 (0000ms, 0276ms total)
T0F80 000:682 JLINK_WriteReg(R5, 0x00000000)  returns 0x00 (0000ms, 0276ms total)
T0F80 000:682 JLINK_WriteReg(R6, 0x00000000)  returns 0x00 (0000ms, 0276ms total)
T0F80 000:682 JLINK_WriteReg(R7, 0x00000000)  returns 0x00 (0000ms, 0276ms total)
T0F80 000:682 JLINK_WriteReg(R8, 0x00000000)  returns 0x00 (0000ms, 0276ms total)
T0F80 000:682 JLINK_WriteReg(R9, 0x2000017C)  returns 0x00 (0000ms, 0276ms total)
T0F80 000:682 JLINK_WriteReg(R10, 0x00000000)  returns 0x00 (0000ms, 0276ms total)
T0F80 000:682 JLINK_WriteReg(R11, 0x00000000)  returns 0x00 (0000ms, 0276ms total)
T0F80 000:682 JLINK_WriteReg(R12, 0x00000000)  returns 0x00 (0000ms, 0276ms total)
T0F80 000:682 JLINK_WriteReg(R13, 0x20000800)  returns 0x00 (0000ms, 0276ms total)
T0F80 000:682 JLINK_WriteReg(R14, 0x20000001)  returns 0x00 (0000ms, 0276ms total)
T0F80 000:682 JLINK_WriteReg(R15, 0x20000082)  returns 0x00 (0000ms, 0276ms total)
T0F80 000:682 JLINK_WriteReg(XPSR, 0x01000000)  returns 0x00 (0000ms, 0276ms total)
T0F80 000:682 JLINK_WriteReg(MSP, 0x20000800)  returns 0x00 (0000ms, 0276ms total)
T0F80 000:682 JLINK_WriteReg(PSP, 0x20000800)  returns 0x00 (0000ms, 0276ms total)
T0F80 000:682 JLINK_WriteReg(CFBP, 0x00000000)  returns 0x00 (0000ms, 0276ms total)
T0F80 000:682 JLINK_SetBPEx(Addr = 0x20000000, Type = 0xFFFFFFF2)  returns 0x00000004 (0000ms, 0276ms total)
T0F80 000:682 JLINK_Go() (0003ms, 0279ms total)
T0F80 000:685 JLINK_IsHalted() -- CPU_ReadMem(2 bytes @ 0x20000000)  returns TRUE (0005ms, 0284ms total)
T0F80 000:690 JLINK_ReadReg(R15)  returns 0x20000000 (0000ms, 0279ms total)
T0F80 000:690 JLINK_ClrBPEx(BPHandle = 0x00000004)  returns 0x00 (0000ms, 0279ms total)
T0F80 000:690 JLINK_ReadReg(R0)  returns 0x00000000 (0000ms, 0279ms total)
T0F80 000:742 JLINK_WriteMem(0x20000000, 0x0180 Bytes, ...) -- Data:  00 BE 0A E0 0D 78 2D 06 68 40 08 24 40 00 00 D3 ... -- CPU_WriteMem(384 bytes @ 0x20000000)  returns 0x180 (0005ms, 0284ms total)
T0F80 000:747 JLINK_WriteReg(R0, 0x08000000)  returns 0x00 (0000ms, 0284ms total)
T0F80 000:747 JLINK_WriteReg(R1, 0x017D7840)  returns 0x00 (0000ms, 0284ms total)
T0F80 000:747 JLINK_WriteReg(R2, 0x00000002)  returns 0x00 (0000ms, 0284ms total)
T0F80 000:747 JLINK_WriteReg(R3, 0x00000000)  returns 0x00 (0000ms, 0284ms total)
T0F80 000:747 JLINK_WriteReg(R4, 0x00000000)  returns 0x00 (0000ms, 0284ms total)
T0F80 000:747 JLINK_WriteReg(R5, 0x00000000)  returns 0x00 (0000ms, 0284ms total)
T0F80 000:747 JLINK_WriteReg(R6, 0x00000000)  returns 0x00 (0000ms, 0284ms total)
T0F80 000:747 JLINK_WriteReg(R7, 0x00000000)  returns 0x00 (0000ms, 0284ms total)
T0F80 000:747 JLINK_WriteReg(R8, 0x00000000)  returns 0x00 (0000ms, 0284ms total)
T0F80 000:747 JLINK_WriteReg(R9, 0x2000017C)  returns 0x00 (0000ms, 0284ms total)
T0F80 000:747 JLINK_WriteReg(R10, 0x00000000)  returns 0x00 (0000ms, 0284ms total)
T0F80 000:747 JLINK_WriteReg(R11, 0x00000000)  returns 0x00 (0000ms, 0284ms total)
T0F80 000:747 JLINK_WriteReg(R12, 0x00000000)  returns 0x00 (0000ms, 0284ms total)
T0F80 000:747 JLINK_WriteReg(R13, 0x20000800)  returns 0x00 (0000ms, 0284ms total)
T0F80 000:747 JLINK_WriteReg(R14, 0x20000001)  returns 0x00 (0000ms, 0284ms total)
T0F80 000:747 JLINK_WriteReg(R15, 0x20000054)  returns 0x00 (0000ms, 0284ms total)
T0F80 000:747 JLINK_WriteReg(XPSR, 0x01000000)  returns 0x00 (0000ms, 0284ms total)
T0F80 000:747 JLINK_WriteReg(MSP, 0x20000800)  returns 0x00 (0000ms, 0284ms total)
T0F80 000:747 JLINK_WriteReg(PSP, 0x20000800)  returns 0x00 (0000ms, 0284ms total)
T0F80 000:747 JLINK_WriteReg(CFBP, 0x00000000)  returns 0x00 (0000ms, 0284ms total)
T0F80 000:747 JLINK_SetBPEx(Addr = 0x20000000, Type = 0xFFFFFFF2) -- CPU_ReadMem(2 bytes @ 0x20000000)  returns 0x00000005 (0001ms, 0285ms total)
T0F80 000:748 JLINK_Go() -- CPU_WriteMem(2 bytes @ 0x20000000) (0004ms, 0289ms total)
T0F80 000:752 JLINK_IsHalted() -- CPU_ReadMem(2 bytes @ 0x20000000)  returns TRUE (0005ms, 0294ms total)
T0F80 000:757 JLINK_ReadReg(R15)  returns 0x20000000 (0000ms, 0289ms total)
T0F80 000:757 JLINK_ClrBPEx(BPHandle = 0x00000005)  returns 0x00 (0000ms, 0289ms total)
T0F80 000:757 JLINK_ReadReg(R0)  returns 0x00000000 (0000ms, 0289ms total)
T0F80 000:757 JLINK_WriteMem(0x20000180, 0x0400 Bytes, ...) -- Data:  28 04 00 20 9D 01 00 08 B9 1E 00 08 BB 1E 00 08 ... -- CPU_WriteMem(1024 bytes @ 0x20000180)  returns 0x400 (0011ms, 0300ms total)
T0F80 000:768 JLINK_WriteReg(R0, 0x08000000)  returns 0x00 (0000ms, 0300ms total)
T0F80 000:768 JLINK_WriteReg(R1, 0x00000400)  returns 0x00 (0000ms, 0300ms total)
T0F80 000:768 JLINK_WriteReg(R2, 0x20000180)  returns 0x00 (0000ms, 0300ms total)
T0F80 000:768 JLINK_WriteReg(R3, 0x00000000)  returns 0x00 (0000ms, 0300ms total)
T0F80 000:768 JLINK_WriteReg(R4, 0x00000000)  returns 0x00 (0000ms, 0300ms total)
T0F80 000:768 JLINK_WriteReg(R5, 0x00000000)  returns 0x00 (0000ms, 0300ms total)
T0F80 000:768 JLINK_WriteReg(R6, 0x00000000)  returns 0x00 (0000ms, 0300ms total)
T0F80 000:768 JLINK_WriteReg(R7, 0x00000000)  returns 0x00 (0000ms, 0300ms total)
T0F80 000:768 JLINK_WriteReg(R8, 0x00000000)  returns 0x00 (0000ms, 0300ms total)
T0F80 000:768 JLINK_WriteReg(R9, 0x2000017C)  returns 0x00 (0000ms, 0300ms total)
T0F80 000:768 JLINK_WriteReg(R10, 0x00000000)  returns 0x00 (0000ms, 0300ms total)
T0F80 000:768 JLINK_WriteReg(R11, 0x00000000)  returns 0x00 (0000ms, 0300ms total)
T0F80 000:768 JLINK_WriteReg(R12, 0x00000000)  returns 0x00 (0000ms, 0300ms total)
T0F80 000:768 JLINK_WriteReg(R13, 0x20000800)  returns 0x00 (0000ms, 0300ms total)
T0F80 000:768 JLINK_WriteReg(R14, 0x20000001)  returns 0x00 (0000ms, 0300ms total)
T0F80 000:768 JLINK_WriteReg(R15, 0x20000108)  returns 0x00 (0000ms, 0300ms total)
T0F80 000:768 JLINK_WriteReg(XPSR, 0x01000000)  returns 0x00 (0000ms, 0300ms total)
T0F80 000:768 JLINK_WriteReg(MSP, 0x20000800)  returns 0x00 (0000ms, 0300ms total)
T0F80 000:768 JLINK_WriteReg(PSP, 0x20000800)  returns 0x00 (0000ms, 0300ms total)
T0F80 000:768 JLINK_WriteReg(CFBP, 0x00000000)  returns 0x00 (0000ms, 0300ms total)
T0F80 000:768 JLINK_SetBPEx(Addr = 0x20000000, Type = 0xFFFFFFF2)  returns 0x00000006 (0000ms, 0300ms total)
T0F80 000:768 JLINK_Go() (0003ms, 0303ms total)
T0F80 000:771 JLINK_IsHalted()  returns FALSE (0001ms, 0304ms total)
T0F80 000:776 JLINK_IsHalted() -- CPU_ReadMem(2 bytes @ 0x20000000)  returns TRUE (0005ms, 0308ms total)
T0F80 000:781 JLINK_ReadReg(R15)  returns 0x20000000 (0000ms, 0303ms total)
T0F80 000:781 JLINK_ClrBPEx(BPHandle = 0x00000006)  returns 0x00 (0000ms, 0303ms total)
T0F80 000:781 JLINK_ReadReg(R0)  returns 0x00000000 (0000ms, 0303ms total)
T0F80 000:781 JLINK_WriteMem(0x20000180, 0x0400 Bytes, ...) -- Data:  84 78 14 40 21 43 0C 07 21 0E 26 4C 05 78 61 55 ... -- CPU_WriteMem(1024 bytes @ 0x20000180)  returns 0x400 (0011ms, 0314ms total)
T0F80 000:792 JLINK_WriteReg(R0, 0x08000400)  returns 0x00 (0000ms, 0314ms total)
T0F80 000:792 JLINK_WriteReg(R1, 0x00000400)  returns 0x00 (0000ms, 0314ms total)
T0F80 000:792 JLINK_WriteReg(R2, 0x20000180)  returns 0x00 (0000ms, 0314ms total)
T0F80 000:792 JLINK_WriteReg(R3, 0x00000000)  returns 0x00 (0000ms, 0314ms total)
T0F80 000:792 JLINK_WriteReg(R4, 0x00000000)  returns 0x00 (0000ms, 0314ms total)
T0F80 000:792 JLINK_WriteReg(R5, 0x00000000)  returns 0x00 (0000ms, 0314ms total)
T0F80 000:792 JLINK_WriteReg(R6, 0x00000000)  returns 0x00 (0000ms, 0314ms total)
T0F80 000:792 JLINK_WriteReg(R7, 0x00000000)  returns 0x00 (0000ms, 0314ms total)
T0F80 000:792 JLINK_WriteReg(R8, 0x00000000)  returns 0x00 (0000ms, 0314ms total)
T0F80 000:792 JLINK_WriteReg(R9, 0x2000017C)  returns 0x00 (0000ms, 0314ms total)
T0F80 000:792 JLINK_WriteReg(R10, 0x00000000)  returns 0x00 (0000ms, 0314ms total)
T0F80 000:792 JLINK_WriteReg(R11, 0x00000000)  returns 0x00 (0000ms, 0314ms total)
T0F80 000:792 JLINK_WriteReg(R12, 0x00000000)  returns 0x00 (0000ms, 0314ms total)
T0F80 000:792 JLINK_WriteReg(R13, 0x20000800)  returns 0x00 (0000ms, 0314ms total)
T0F80 000:792 JLINK_WriteReg(R14, 0x20000001)  returns 0x00 (0000ms, 0314ms total)
T0F80 000:792 JLINK_WriteReg(R15, 0x20000108)  returns 0x00 (0000ms, 0314ms total)
T0F80 000:792 JLINK_WriteReg(XPSR, 0x01000000)  returns 0x00 (0000ms, 0314ms total)
T0F80 000:792 JLINK_WriteReg(MSP, 0x20000800)  returns 0x00 (0000ms, 0314ms total)
T0F80 000:792 JLINK_WriteReg(PSP, 0x20000800)  returns 0x00 (0000ms, 0314ms total)
T0F80 000:792 JLINK_WriteReg(CFBP, 0x00000000)  returns 0x00 (0000ms, 0314ms total)
T0F80 000:792 JLINK_SetBPEx(Addr = 0x20000000, Type = 0xFFFFFFF2)  returns 0x00000007 (0000ms, 0314ms total)
T0F80 000:792 JLINK_Go() (0003ms, 0317ms total)
T0F80 000:795 JLINK_IsHalted()  returns FALSE (0001ms, 0318ms total)
T0F80 000:798 JLINK_IsHalted()  returns FALSE (0001ms, 0318ms total)
T0F80 000:800 JLINK_IsHalted() -- CPU_ReadMem(2 bytes @ 0x20000000)  returns TRUE (0005ms, 0322ms total)
T0F80 000:805 JLINK_ReadReg(R15)  returns 0x20000000 (0000ms, 0317ms total)
T0F80 000:805 JLINK_ClrBPEx(BPHandle = 0x00000007)  returns 0x00 (0000ms, 0317ms total)
T0F80 000:805 JLINK_ReadReg(R0)  returns 0x00000000 (0000ms, 0317ms total)
T0F80 000:805 JLINK_WriteMem(0x20000180, 0x0400 Bytes, ...) -- Data:  01 D0 00 2D F2 D0 31 20 FF F7 CC FF 08 B1 01 24 ... -- CPU_WriteMem(1024 bytes @ 0x20000180)  returns 0x400 (0011ms, 0328ms total)
T0F80 000:816 JLINK_WriteReg(R0, 0x08000800)  returns 0x00 (0000ms, 0328ms total)
T0F80 000:816 JLINK_WriteReg(R1, 0x00000400)  returns 0x00 (0000ms, 0328ms total)
T0F80 000:816 JLINK_WriteReg(R2, 0x20000180)  returns 0x00 (0000ms, 0328ms total)
T0F80 000:816 JLINK_WriteReg(R3, 0x00000000)  returns 0x00 (0000ms, 0328ms total)
T0F80 000:816 JLINK_WriteReg(R4, 0x00000000)  returns 0x00 (0000ms, 0328ms total)
T0F80 000:816 JLINK_WriteReg(R5, 0x00000000)  returns 0x00 (0000ms, 0328ms total)
T0F80 000:816 JLINK_WriteReg(R6, 0x00000000)  returns 0x00 (0000ms, 0328ms total)
T0F80 000:816 JLINK_WriteReg(R7, 0x00000000)  returns 0x00 (0000ms, 0328ms total)
T0F80 000:816 JLINK_WriteReg(R8, 0x00000000)  returns 0x00 (0000ms, 0328ms total)
T0F80 000:816 JLINK_WriteReg(R9, 0x2000017C)  returns 0x00 (0000ms, 0328ms total)
T0F80 000:816 JLINK_WriteReg(R10, 0x00000000)  returns 0x00 (0000ms, 0328ms total)
T0F80 000:816 JLINK_WriteReg(R11, 0x00000000)  returns 0x00 (0000ms, 0328ms total)
T0F80 000:816 JLINK_WriteReg(R12, 0x00000000)  returns 0x00 (0000ms, 0328ms total)
T0F80 000:816 JLINK_WriteReg(R13, 0x20000800)  returns 0x00 (0000ms, 0328ms total)
T0F80 000:816 JLINK_WriteReg(R14, 0x20000001)  returns 0x00 (0000ms, 0328ms total)
T0F80 000:816 JLINK_WriteReg(R15, 0x20000108)  returns 0x00 (0000ms, 0328ms total)
T0F80 000:816 JLINK_WriteReg(XPSR, 0x01000000)  returns 0x00 (0000ms, 0328ms total)
T0F80 000:816 JLINK_WriteReg(MSP, 0x20000800)  returns 0x00 (0000ms, 0328ms total)
T0F80 000:816 JLINK_WriteReg(PSP, 0x20000800)  returns 0x00 (0000ms, 0328ms total)
T0F80 000:816 JLINK_WriteReg(CFBP, 0x00000000)  returns 0x00 (0000ms, 0328ms total)
T0F80 000:816 JLINK_SetBPEx(Addr = 0x20000000, Type = 0xFFFFFFF2)  returns 0x00000008 (0000ms, 0328ms total)
T0F80 000:816 JLINK_Go() (0003ms, 0331ms total)
T0F80 000:819 JLINK_IsHalted()  returns FALSE (0001ms, 0332ms total)
T0F80 000:822 JLINK_IsHalted()  returns FALSE (0001ms, 0332ms total)
T0F80 000:824 JLINK_IsHalted() -- CPU_ReadMem(2 bytes @ 0x20000000)  returns TRUE (0005ms, 0336ms total)
T0F80 000:829 JLINK_ReadReg(R15)  returns 0x20000000 (0000ms, 0331ms total)
T0F80 000:829 JLINK_ClrBPEx(BPHandle = 0x00000008)  returns 0x00 (0000ms, 0331ms total)
T0F80 000:829 JLINK_ReadReg(R0)  returns 0x00000000 (0000ms, 0331ms total)
T0F80 000:829 JLINK_WriteMem(0x20000180, 0x0400 Bytes, ...) -- Data:  06 E0 5C 4A 20 3A 12 68 82 43 5A 4B 20 3B 1A 60 ... -- CPU_WriteMem(1024 bytes @ 0x20000180)  returns 0x400 (0011ms, 0342ms total)
T0F80 000:840 JLINK_WriteReg(R0, 0x08000C00)  returns 0x00 (0000ms, 0342ms total)
T0F80 000:840 JLINK_WriteReg(R1, 0x00000400)  returns 0x00 (0000ms, 0342ms total)
T0F80 000:840 JLINK_WriteReg(R2, 0x20000180)  returns 0x00 (0000ms, 0342ms total)
T0F80 000:840 JLINK_WriteReg(R3, 0x00000000)  returns 0x00 (0000ms, 0342ms total)
T0F80 000:840 JLINK_WriteReg(R4, 0x00000000)  returns 0x00 (0000ms, 0342ms total)
T0F80 000:840 JLINK_WriteReg(R5, 0x00000000)  returns 0x00 (0000ms, 0342ms total)
T0F80 000:840 JLINK_WriteReg(R6, 0x00000000)  returns 0x00 (0000ms, 0342ms total)
T0F80 000:840 JLINK_WriteReg(R7, 0x00000000)  returns 0x00 (0000ms, 0342ms total)
T0F80 000:840 JLINK_WriteReg(R8, 0x00000000)  returns 0x00 (0000ms, 0342ms total)
T0F80 000:840 JLINK_WriteReg(R9, 0x2000017C)  returns 0x00 (0000ms, 0342ms total)
T0F80 000:840 JLINK_WriteReg(R10, 0x00000000)  returns 0x00 (0000ms, 0342ms total)
T0F80 000:840 JLINK_WriteReg(R11, 0x00000000)  returns 0x00 (0000ms, 0342ms total)
T0F80 000:840 JLINK_WriteReg(R12, 0x00000000)  returns 0x00 (0000ms, 0342ms total)
T0F80 000:840 JLINK_WriteReg(R13, 0x20000800)  returns 0x00 (0000ms, 0342ms total)
T0F80 000:840 JLINK_WriteReg(R14, 0x20000001)  returns 0x00 (0000ms, 0342ms total)
T0F80 000:840 JLINK_WriteReg(R15, 0x20000108)  returns 0x00 (0000ms, 0342ms total)
T0F80 000:840 JLINK_WriteReg(XPSR, 0x01000000)  returns 0x00 (0000ms, 0342ms total)
T0F80 000:840 JLINK_WriteReg(MSP, 0x20000800)  returns 0x00 (0000ms, 0342ms total)
T0F80 000:840 JLINK_WriteReg(PSP, 0x20000800)  returns 0x00 (0000ms, 0342ms total)
T0F80 000:840 JLINK_WriteReg(CFBP, 0x00000000)  returns 0x00 (0000ms, 0342ms total)
T0F80 000:840 JLINK_SetBPEx(Addr = 0x20000000, Type = 0xFFFFFFF2)  returns 0x00000009 (0000ms, 0342ms total)
T0F80 000:840 JLINK_Go() (0003ms, 0345ms total)
T0F80 000:843 JLINK_IsHalted()  returns FALSE (0001ms, 0346ms total)
T0F80 000:846 JLINK_IsHalted()  returns FALSE (0001ms, 0346ms total)
T0F80 000:848 JLINK_IsHalted() -- CPU_ReadMem(2 bytes @ 0x20000000)  returns TRUE (0005ms, 0350ms total)
T0F80 000:853 JLINK_ReadReg(R15)  returns 0x20000000 (0000ms, 0345ms total)
T0F80 000:853 JLINK_ClrBPEx(BPHandle = 0x00000009)  returns 0x00 (0000ms, 0345ms total)
T0F80 000:853 JLINK_ReadReg(R0)  returns 0x00000000 (0000ms, 0345ms total)
T0F80 000:853 JLINK_WriteMem(0x20000180, 0x0400 Bytes, ...) -- Data:  00 22 00 23 05 8C 4F F6 FE 76 35 40 05 84 02 8C ... -- CPU_WriteMem(1024 bytes @ 0x20000180)  returns 0x400 (0011ms, 0356ms total)
T0F80 000:864 JLINK_WriteReg(R0, 0x08001000)  returns 0x00 (0000ms, 0356ms total)
T0F80 000:864 JLINK_WriteReg(R1, 0x00000400)  returns 0x00 (0000ms, 0356ms total)
T0F80 000:864 JLINK_WriteReg(R2, 0x20000180)  returns 0x00 (0000ms, 0356ms total)
T0F80 000:864 JLINK_WriteReg(R3, 0x00000000)  returns 0x00 (0000ms, 0356ms total)
T0F80 000:864 JLINK_WriteReg(R4, 0x00000000)  returns 0x00 (0000ms, 0356ms total)
T0F80 000:864 JLINK_WriteReg(R5, 0x00000000)  returns 0x00 (0000ms, 0356ms total)
T0F80 000:864 JLINK_WriteReg(R6, 0x00000000)  returns 0x00 (0000ms, 0356ms total)
T0F80 000:864 JLINK_WriteReg(R7, 0x00000000)  returns 0x00 (0000ms, 0356ms total)
T0F80 000:864 JLINK_WriteReg(R8, 0x00000000)  returns 0x00 (0000ms, 0356ms total)
T0F80 000:864 JLINK_WriteReg(R9, 0x2000017C)  returns 0x00 (0000ms, 0356ms total)
T0F80 000:864 JLINK_WriteReg(R10, 0x00000000)  returns 0x00 (0000ms, 0356ms total)
T0F80 000:864 JLINK_WriteReg(R11, 0x00000000)  returns 0x00 (0000ms, 0356ms total)
T0F80 000:864 JLINK_WriteReg(R12, 0x00000000)  returns 0x00 (0000ms, 0356ms total)
T0F80 000:864 JLINK_WriteReg(R13, 0x20000800)  returns 0x00 (0000ms, 0356ms total)
T0F80 000:864 JLINK_WriteReg(R14, 0x20000001)  returns 0x00 (0000ms, 0356ms total)
T0F80 000:864 JLINK_WriteReg(R15, 0x20000108)  returns 0x00 (0000ms, 0356ms total)
T0F80 000:864 JLINK_WriteReg(XPSR, 0x01000000)  returns 0x00 (0000ms, 0356ms total)
T0F80 000:864 JLINK_WriteReg(MSP, 0x20000800)  returns 0x00 (0000ms, 0356ms total)
T0F80 000:864 JLINK_WriteReg(PSP, 0x20000800)  returns 0x00 (0000ms, 0356ms total)
T0F80 000:864 JLINK_WriteReg(CFBP, 0x00000000)  returns 0x00 (0000ms, 0356ms total)
T0F80 000:864 JLINK_SetBPEx(Addr = 0x20000000, Type = 0xFFFFFFF2)  returns 0x0000000A (0000ms, 0356ms total)
T0F80 000:864 JLINK_Go() (0003ms, 0359ms total)
T0F80 000:867 JLINK_IsHalted()  returns FALSE (0001ms, 0360ms total)
T0F80 000:870 JLINK_IsHalted()  returns FALSE (0001ms, 0360ms total)
T0F80 000:872 JLINK_IsHalted() -- CPU_ReadMem(2 bytes @ 0x20000000)  returns TRUE (0005ms, 0364ms total)
T0F80 000:877 JLINK_ReadReg(R15)  returns 0x20000000 (0000ms, 0359ms total)
T0F80 000:877 JLINK_ClrBPEx(BPHandle = 0x0000000A)  returns 0x00 (0000ms, 0359ms total)
T0F80 000:877 JLINK_ReadReg(R0)  returns 0x00000000 (0000ms, 0359ms total)
T0F80 000:877 JLINK_WriteMem(0x20000180, 0x0400 Bytes, ...) -- Data:  70 47 0A 46 00 21 81 8B C1 F3 0E 01 4F F6 FF 73 ... -- CPU_WriteMem(1024 bytes @ 0x20000180)  returns 0x400 (0011ms, 0370ms total)
T0F80 000:888 JLINK_WriteReg(R0, 0x08001400)  returns 0x00 (0000ms, 0370ms total)
T0F80 000:888 JLINK_WriteReg(R1, 0x00000400)  returns 0x00 (0000ms, 0370ms total)
T0F80 000:888 JLINK_WriteReg(R2, 0x20000180)  returns 0x00 (0000ms, 0370ms total)
T0F80 000:888 JLINK_WriteReg(R3, 0x00000000)  returns 0x00 (0000ms, 0370ms total)
T0F80 000:888 JLINK_WriteReg(R4, 0x00000000)  returns 0x00 (0000ms, 0370ms total)
T0F80 000:888 JLINK_WriteReg(R5, 0x00000000)  returns 0x00 (0000ms, 0370ms total)
T0F80 000:888 JLINK_WriteReg(R6, 0x00000000)  returns 0x00 (0000ms, 0370ms total)
T0F80 000:888 JLINK_WriteReg(R7, 0x00000000)  returns 0x00 (0000ms, 0370ms total)
T0F80 000:888 JLINK_WriteReg(R8, 0x00000000)  returns 0x00 (0000ms, 0370ms total)
T0F80 000:888 JLINK_WriteReg(R9, 0x2000017C)  returns 0x00 (0000ms, 0370ms total)
T0F80 000:888 JLINK_WriteReg(R10, 0x00000000)  returns 0x00 (0000ms, 0370ms total)
T0F80 000:888 JLINK_WriteReg(R11, 0x00000000)  returns 0x00 (0000ms, 0370ms total)
T0F80 000:888 JLINK_WriteReg(R12, 0x00000000)  returns 0x00 (0000ms, 0370ms total)
T0F80 000:888 JLINK_WriteReg(R13, 0x20000800)  returns 0x00 (0000ms, 0370ms total)
T0F80 000:888 JLINK_WriteReg(R14, 0x20000001)  returns 0x00 (0000ms, 0370ms total)
T0F80 000:888 JLINK_WriteReg(R15, 0x20000108)  returns 0x00 (0000ms, 0370ms total)
T0F80 000:888 JLINK_WriteReg(XPSR, 0x01000000)  returns 0x00 (0000ms, 0370ms total)
T0F80 000:888 JLINK_WriteReg(MSP, 0x20000800)  returns 0x00 (0000ms, 0370ms total)
T0F80 000:888 JLINK_WriteReg(PSP, 0x20000800)  returns 0x00 (0000ms, 0370ms total)
T0F80 000:888 JLINK_WriteReg(CFBP, 0x00000000)  returns 0x00 (0000ms, 0370ms total)
T0F80 000:888 JLINK_SetBPEx(Addr = 0x20000000, Type = 0xFFFFFFF2)  returns 0x0000000B (0000ms, 0370ms total)
T0F80 000:888 JLINK_Go() (0003ms, 0373ms total)
T0F80 000:891 JLINK_IsHalted()  returns FALSE (0001ms, 0374ms total)
T0F80 000:894 JLINK_IsHalted()  returns FALSE (0001ms, 0374ms total)
T0F80 000:896 JLINK_IsHalted() -- CPU_ReadMem(2 bytes @ 0x20000000)  returns TRUE (0005ms, 0378ms total)
T0F80 000:901 JLINK_ReadReg(R15)  returns 0x20000000 (0000ms, 0373ms total)
T0F80 000:901 JLINK_ClrBPEx(BPHandle = 0x0000000B)  returns 0x00 (0000ms, 0373ms total)
T0F80 000:901 JLINK_ReadReg(R0)  returns 0x00000000 (0000ms, 0373ms total)
T0F80 000:901 JLINK_WriteMem(0x20000180, 0x0400 Bytes, ...) -- Data:  42 F0 01 02 82 80 04 E0 82 88 4F F6 FE 73 1A 40 ... -- CPU_WriteMem(1024 bytes @ 0x20000180)  returns 0x400 (0011ms, 0384ms total)
T0F80 000:912 JLINK_WriteReg(R0, 0x08001800)  returns 0x00 (0000ms, 0384ms total)
T0F80 000:912 JLINK_WriteReg(R1, 0x00000400)  returns 0x00 (0000ms, 0384ms total)
T0F80 000:912 JLINK_WriteReg(R2, 0x20000180)  returns 0x00 (0000ms, 0384ms total)
T0F80 000:912 JLINK_WriteReg(R3, 0x00000000)  returns 0x00 (0000ms, 0384ms total)
T0F80 000:912 JLINK_WriteReg(R4, 0x00000000)  returns 0x00 (0000ms, 0384ms total)
T0F80 000:912 JLINK_WriteReg(R5, 0x00000000)  returns 0x00 (0000ms, 0384ms total)
T0F80 000:912 JLINK_WriteReg(R6, 0x00000000)  returns 0x00 (0000ms, 0384ms total)
T0F80 000:912 JLINK_WriteReg(R7, 0x00000000)  returns 0x00 (0000ms, 0384ms total)
T0F80 000:912 JLINK_WriteReg(R8, 0x00000000)  returns 0x00 (0000ms, 0384ms total)
T0F80 000:912 JLINK_WriteReg(R9, 0x2000017C)  returns 0x00 (0000ms, 0384ms total)
T0F80 000:912 JLINK_WriteReg(R10, 0x00000000)  returns 0x00 (0000ms, 0384ms total)
T0F80 000:912 JLINK_WriteReg(R11, 0x00000000)  returns 0x00 (0000ms, 0384ms total)
T0F80 000:912 JLINK_WriteReg(R12, 0x00000000)  returns 0x00 (0000ms, 0384ms total)
T0F80 000:912 JLINK_WriteReg(R13, 0x20000800)  returns 0x00 (0000ms, 0384ms total)
T0F80 000:912 JLINK_WriteReg(R14, 0x20000001)  returns 0x00 (0000ms, 0384ms total)
T0F80 000:912 JLINK_WriteReg(R15, 0x20000108)  returns 0x00 (0000ms, 0384ms total)
T0F80 000:912 JLINK_WriteReg(XPSR, 0x01000000)  returns 0x00 (0000ms, 0384ms total)
T0F80 000:912 JLINK_WriteReg(MSP, 0x20000800)  returns 0x00 (0000ms, 0384ms total)
T0F80 000:912 JLINK_WriteReg(PSP, 0x20000800)  returns 0x00 (0000ms, 0384ms total)
T0F80 000:912 JLINK_WriteReg(CFBP, 0x00000000)  returns 0x00 (0000ms, 0384ms total)
T0F80 000:912 JLINK_SetBPEx(Addr = 0x20000000, Type = 0xFFFFFFF2)  returns 0x0000000C (0000ms, 0384ms total)
T0F80 000:912 JLINK_Go() (0003ms, 0387ms total)
T0F80 000:915 JLINK_IsHalted()  returns FALSE (0001ms, 0388ms total)
T0F80 000:917 JLINK_IsHalted()  returns FALSE (0001ms, 0388ms total)
T0F80 000:919 JLINK_IsHalted()  returns FALSE (0001ms, 0388ms total)
T0F80 000:923 JLINK_IsHalted() -- CPU_ReadMem(2 bytes @ 0x20000000)  returns TRUE (0005ms, 0392ms total)
T0F80 000:928 JLINK_ReadReg(R15)  returns 0x20000000 (0000ms, 0387ms total)
T0F80 000:928 JLINK_ClrBPEx(BPHandle = 0x0000000C)  returns 0x00 (0000ms, 0387ms total)
T0F80 000:928 JLINK_ReadReg(R0)  returns 0x00000000 (0000ms, 0387ms total)
T0F80 000:928 JLINK_WriteMem(0x20000180, 0x0400 Bytes, ...) -- Data:  00 52 82 81 04 E0 82 89 4D F6 FF 73 1A 40 82 81 ... -- CPU_WriteMem(1024 bytes @ 0x20000180)  returns 0x400 (0011ms, 0398ms total)
T0F80 000:939 JLINK_WriteReg(R0, 0x08001C00)  returns 0x00 (0000ms, 0398ms total)
T0F80 000:939 JLINK_WriteReg(R1, 0x00000400)  returns 0x00 (0000ms, 0398ms total)
T0F80 000:939 JLINK_WriteReg(R2, 0x20000180)  returns 0x00 (0000ms, 0398ms total)
T0F80 000:939 JLINK_WriteReg(R3, 0x00000000)  returns 0x00 (0000ms, 0398ms total)
T0F80 000:939 JLINK_WriteReg(R4, 0x00000000)  returns 0x00 (0000ms, 0398ms total)
T0F80 000:939 JLINK_WriteReg(R5, 0x00000000)  returns 0x00 (0000ms, 0398ms total)
T0F80 000:939 JLINK_WriteReg(R6, 0x00000000)  returns 0x00 (0000ms, 0398ms total)
T0F80 000:939 JLINK_WriteReg(R7, 0x00000000)  returns 0x00 (0000ms, 0398ms total)
T0F80 000:939 JLINK_WriteReg(R8, 0x00000000)  returns 0x00 (0000ms, 0398ms total)
T0F80 000:939 JLINK_WriteReg(R9, 0x2000017C)  returns 0x00 (0000ms, 0398ms total)
T0F80 000:939 JLINK_WriteReg(R10, 0x00000000)  returns 0x00 (0000ms, 0398ms total)
T0F80 000:939 JLINK_WriteReg(R11, 0x00000000)  returns 0x00 (0000ms, 0398ms total)
T0F80 000:939 JLINK_WriteReg(R12, 0x00000000)  returns 0x00 (0000ms, 0398ms total)
T0F80 000:939 JLINK_WriteReg(R13, 0x20000800)  returns 0x00 (0000ms, 0398ms total)
T0F80 000:939 JLINK_WriteReg(R14, 0x20000001)  returns 0x00 (0000ms, 0398ms total)
T0F80 000:939 JLINK_WriteReg(R15, 0x20000108)  returns 0x00 (0000ms, 0398ms total)
T0F80 000:939 JLINK_WriteReg(XPSR, 0x01000000)  returns 0x00 (0000ms, 0398ms total)
T0F80 000:939 JLINK_WriteReg(MSP, 0x20000800)  returns 0x00 (0000ms, 0398ms total)
T0F80 000:939 JLINK_WriteReg(PSP, 0x20000800)  returns 0x00 (0000ms, 0398ms total)
T0F80 000:939 JLINK_WriteReg(CFBP, 0x00000000)  returns 0x00 (0000ms, 0398ms total)
T0F80 000:939 JLINK_SetBPEx(Addr = 0x20000000, Type = 0xFFFFFFF2)  returns 0x0000000D (0000ms, 0398ms total)
T0F80 000:939 JLINK_Go() (0003ms, 0401ms total)
T0F80 000:942 JLINK_IsHalted()  returns FALSE (0001ms, 0402ms total)
T0F80 000:944 JLINK_IsHalted()  returns FALSE (0001ms, 0402ms total)
T0F80 000:946 JLINK_IsHalted()  returns FALSE (0001ms, 0402ms total)
T0F80 000:948 JLINK_IsHalted() -- CPU_ReadMem(2 bytes @ 0x20000000)  returns TRUE (0005ms, 0406ms total)
T0F80 000:953 JLINK_ReadReg(R15)  returns 0x20000000 (0000ms, 0401ms total)
T0F80 000:953 JLINK_ClrBPEx(BPHandle = 0x0000000D)  returns 0x00 (0000ms, 0401ms total)
T0F80 000:953 JLINK_ReadReg(R0)  returns 0x00000000 (0000ms, 0401ms total)
